(1549571036.510357) can0 726#7F
(1549571036.527019) can0 1A6#0300000000007A00
(1549571036.527956) can0 2A6#65006A0000000000
(1549571036.528944) can0 3A6#000000002B000000
(1549571036.529890) can0 4A6#5907590700008405
(1549571036.610665) can0 726#7F
(1549571036.627348) can0 1A6#0B00000000008C00
(1549571036.628301) can0 2A6#65006A0000000000
(1549571036.629287) can0 3A6#000000002B000000
(1549571036.630225) can0 4A6#5907590700008605
(1549571036.711062) can0 726#7F
(1549571036.727747) can0 1A6#0500000000008C00
(1549571036.728714) can0 2A6#65006A0000000000
(1549571036.729702) can0 3A6#000000002B000000
(1549571036.730649) can0 4A6#5907590700008405
(1549571036.811477) can0 726#7F
(1549571036.828151) can0 1A6#0A00000000007A00
(1549571036.829121) can0 2A6#65006A0000000000
(1549571036.830109) can0 3A6#000000002B000000
(1549571036.831047) can0 4A6#5907590700008605
(1549571036.911868) can0 726#7F
(1549571036.928607) can0 1A6#0700000000008C00
(1549571036.929538) can0 2A6#65006A0000000000
(1549571036.930511) can0 3A6#000000002B000000
(1549571036.931458) can0 4A6#5907590700008605
(1549571037.012334) can0 726#7F
(1549571037.029005) can0 1A6#0C00000000007A00
(1549571037.029975) can0 2A6#65006A0000000000
(1549571037.030961) can0 3A6#000000002B000000
(1549571037.031911) can0 4A6#5907590700008405
(1549571037.112698) can0 726#7F
(1549571037.129364) can0 1A6#0900000000007A00
(1549571037.130335) can0 2A6#65006A0000000000
(1549571037.131321) can0 3A6#000000002B000000
(1549571037.132260) can0 4A6#5907590700008605
(1549571037.213171) can0 726#7F
(1549571037.229828) can0 1A6#0D00000000007A00
(1549571037.230797) can0 2A6#65006A0000000000
(1549571037.231787) can0 3A6#000000002B000000
(1549571037.232732) can0 4A6#5907590700008405
(1549571037.313496) can0 726#7F
(1549571037.330180) can0 1A6#0B00000000008C00
(1549571037.331149) can0 2A6#65006A0000000000
(1549571037.332136) can0 3A6#000000002B000000
(1549571037.333084) can0 4A6#5907590700008405
(1549571037.413904) can0 726#7F
(1549571037.430602) can0 1A6#0800000000007A00
(1549571037.431582) can0 2A6#65006A0000000000
(1549571037.432572) can0 3A6#000000002B000000
(1549571037.433507) can0 4A6#5907590700008405
(1549571037.514338) can0 726#7F
(1549571037.531045) can0 1A6#0C00000000007A00
(1549571037.532013) can0 2A6#65006A0000000000
(1549571037.533003) can0 3A6#000000002B000000
(1549571037.533950) can0 4A6#5907590700008405
(1549571037.614721) can0 726#7F
(1549571037.631416) can0 1A6#0A00000000007A00
(1549571037.632374) can0 2A6#65006A0000000000
(1549571037.633361) can0 3A6#000000002B000000
(1549571037.634302) can0 4A6#5907590700008605
(1549571037.715187) can0 726#7F
(1549571037.731826) can0 1A6#0500000000007A00
(1549571037.732797) can0 2A6#65006A0000000000
(1549571037.733787) can0 3A6#000000002B000000
(1549571037.734732) can0 4A6#5907590700008405
(1549571037.815557) can0 726#7F
(1549571037.832222) can0 1A6#0400000000008C00
(1549571037.833193) can0 2A6#65006A0000000000
(1549571037.834182) can0 3A6#000000002B000000
(1549571037.835119) can0 4A6#5907590700008605
(1549571037.916041) can0 726#7F
(1549571037.932633) can0 1A6#0B00000000007A00
(1549571037.933603) can0 2A6#65006A0000000000
(1549571037.934589) can0 3A6#000000002B000000
(1549571037.935552) can0 4A6#5907590700008405
(1549571038.016358) can0 726#7F
(1549571038.033048) can0 1A6#0D00000000008C00
(1549571038.034020) can0 2A6#65006A0000000000
(1549571038.035006) can0 3A6#000000002B000000
(1549571038.035945) can0 4A6#5907590700008605
(1549571038.116757) can0 726#7F
(1549571038.133465) can0 1A6#0F00000000008C00
(1549571038.134429) can0 2A6#65006A0000000000
(1549571038.135416) can0 3A6#000000002B000000
(1549571038.136344) can0 4A6#5907590700008605
(1549571038.217190) can0 726#7F
(1549571038.233869) can0 1A6#0E00000000008C00
(1549571038.234840) can0 2A6#65006A0000000000
(1549571038.235828) can0 3A6#000000002B000000
(1549571038.236777) can0 4A6#5907590700008405
(1549571038.317588) can0 726#7F
(1549571038.334271) can0 1A6#1300000000008C00
(1549571038.335247) can0 2A6#66006A0000000000
(1549571038.336236) can0 3A6#000000002B000000
(1549571038.337186) can0 4A6#5907590700008405
(1549571038.418082) can0 726#7F
(1549571038.434727) can0 1A6#0C00000000008C00
(1549571038.435701) can0 2A6#66006A0000000000
(1549571038.436689) can0 3A6#000000002B000000
(1549571038.437637) can0 4A6#5907590700008405
(1549571038.518408) can0 726#7F
(1549571038.535087) can0 1A6#0C00000000008C00
(1549571038.536064) can0 2A6#66006A0000000000
(1549571038.537054) can0 3A6#000000002B000000
(1549571038.537999) can0 4A6#5907590700008405
(1549571038.618803) can0 726#7F
(1549571038.635493) can0 1A6#0C00000000008C00
(1549571038.636476) can0 2A6#66006A0000000000
(1549571038.637471) can0 3A6#000000002B000000
(1549571038.638408) can0 4A6#5907590700008605
(1549571038.719227) can0 726#7F
(1549571038.735900) can0 1A6#0500000000008C00
(1549571038.736871) can0 2A6#65006A0000000000
(1549571038.737858) can0 3A6#000000002B000000
(1549571038.738802) can0 4A6#5907590700008605
(1549571038.819617) can0 726#7F
(1549571038.836308) can0 1A6#0C00000000008C00
(1549571038.837278) can0 2A6#65006A0000000000
(1549571038.838266) can0 3A6#000000002B000000
(1549571038.839204) can0 4A6#5907590700008605
(1549571038.920041) can0 726#7F
(1549571038.936715) can0 1A6#0500000000007A00
(1549571038.937686) can0 2A6#65006A0000000000
(1549571038.938672) can0 3A6#000000002B000000
(1549571038.939620) can0 4A6#5907590700008405
(1549571039.020443) can0 726#7F
(1549571039.037114) can0 1A6#0200000000007A00
(1549571039.038086) can0 2A6#65006A0000000000
(1549571039.039071) can0 3A6#000000002B000000
(1549571039.040011) can0 4A6#5907590700008605
(1549571039.120903) can0 726#7F
(1549571039.137586) can0 1A6#0C00000000007A00
(1549571039.138558) can0 2A6#65006A0000000000
(1549571039.139548) can0 3A6#000000002B000000
(1549571039.140474) can0 4A6#5907590700008605
(1549571039.221254) can0 726#7F
(1549571039.237945) can0 1A6#0F00000000007A00
(1549571039.238915) can0 2A6#65006A0000000000
(1549571039.239904) can0 3A6#000000002B000000
(1549571039.240849) can0 4A6#5907590700008405
(1549571039.321662) can0 726#7F
(1549571039.338328) can0 1A6#0D00000000007A00
(1549571039.339296) can0 2A6#65006A0000000000
(1549571039.340286) can0 3A6#000000002B000000
(1549571039.341232) can0 4A6#5907590700008405
(1549571039.422067) can0 726#7F
(1549571039.438759) can0 1A6#0C00000000007A00
(1549571039.439729) can0 2A6#65006A0000000000
(1549571039.440717) can0 3A6#000000002B000000
(1549571039.441655) can0 4A6#5907590700008605
(1549571039.522485) can0 726#7F
(1549571039.539168) can0 1A6#1000000000008C00
(1549571039.540135) can0 2A6#65006A0000000000
(1549571039.541123) can0 3A6#000000002B000000
(1549571039.542072) can0 4A6#5907590700008405
(1549571039.622951) can0 726#7F
(1549571039.639683) can0 1A6#1000000000007A00
(1549571039.640640) can0 2A6#65006A0000000000
(1549571039.641628) can0 3A6#000000002B000000
(1549571039.642578) can0 4A6#5907590700008605
(1549571039.723282) can0 726#7F
(1549571039.739958) can0 1A6#0A00000000007A00
(1549571039.740928) can0 2A6#65006A0000000000
(1549571039.741916) can0 3A6#000000002B000000
(1549571039.742854) can0 4A6#5907590700008605
(1549571039.823754) can0 726#7F
(1549571039.840408) can0 1A6#0600000000008C00
(1549571039.841365) can0 2A6#65006A0000000000
(1549571039.842353) can0 3A6#000000002B000000
(1549571039.843294) can0 4A6#5907590700008605
(1549571039.924150) can0 726#7F
(1549571039.940814) can0 1A6#0800000000007A00
(1549571039.941777) can0 2A6#65006A0000000000
(1549571039.942764) can0 3A6#000000002B000000
(1549571039.943714) can0 4A6#5907590700008405
(1549571040.024512) can0 726#7F
(1549571040.041203) can0 1A6#0800000000007A00
(1549571040.042173) can0 2A6#65006A0000000000
(1549571040.043161) can0 3A6#000000002B000000
(1549571040.044100) can0 4A6#5907590700008605
(1549571040.124929) can0 726#7F
(1549571040.141627) can0 1A6#0600000000008C00
(1549571040.142596) can0 2A6#65006A0000000000
(1549571040.143596) can0 3A6#000000002B000000
(1549571040.144536) can0 4A6#5907590700008605
(1549571040.225328) can0 726#7F
(1549571040.242010) can0 1A6#0900000000007A00
(1549571040.242979) can0 2A6#65006A0000000000
(1549571040.243967) can0 3A6#000000002B000000
(1549571040.244906) can0 4A6#5907590700008605
(1549571040.325809) can0 726#7F
(1549571040.342537) can0 1A6#1100000000007A00
(1549571040.343499) can0 2A6#65006A0000000000
(1549571040.344486) can0 3A6#000000002B000000
(1549571040.345437) can0 4A6#5907590700008605
(1549571040.426150) can0 726#7F
(1549571040.442832) can0 1A6#1600000000008C00
(1549571040.443803) can0 2A6#65006A0000000000
(1549571040.444790) can0 3A6#000000002B000000
(1549571040.445737) can0 4A6#5907590700008405
(1549571040.526604) can0 726#7F
(1549571040.543232) can0 1A6#1C00000000007A00
(1549571040.544201) can0 2A6#65006A0000000000
(1549571040.545190) can0 3A6#000000002B000000
(1549571040.546136) can0 4A6#5907590700008405
(1549571040.626955) can0 726#7F
(1549571040.643639) can0 1A6#1400000000007A00
(1549571040.644609) can0 2A6#65006A0000000000
(1549571040.645597) can0 3A6#000000002B000000
(1549571040.646558) can0 4A6#5907590700008405
(1549571040.727371) can0 726#7F
(1549571040.744055) can0 1A6#1B00000000007A00
(1549571040.745024) can0 2A6#65006A0000000000
(1549571040.746011) can0 3A6#000000002B000000
(1549571040.746952) can0 4A6#5907590700008605
(1549571040.827834) can0 726#7F
(1549571040.844503) can0 1A6#1700000000007A00
(1549571040.845472) can0 2A6#65006A0001000000
(1549571040.846466) can0 3A6#000000002B000000
(1549571040.847416) can0 4A6#5907590700008405
(1549571040.928193) can0 726#7F
(1549571040.944878) can0 1A6#1400000000005409
(1549571040.945830) can0 2A6#6500690001000000
(1549571040.946821) can0 3A6#000000002B000000
(1549571040.947775) can0 4A6#5907590700008C05
(1549571041.028712) can0 726#7F
(1549571041.045387) can0 1A6#140000000000F40E
(1549571041.046337) can0 2A6#6500690001000000
(1549571041.047323) can0 3A6#000000002B000000
(1549571041.048270) can0 4A6#5907590700008E05
(1549571041.129016) can0 726#7F
(1549571041.145675) can0 1A6#1E00000000007B13
(1549571041.146638) can0 2A6#65006A0001000000
(1549571041.147624) can0 3A6#000000002B000000
(1549571041.148575) can0 4A6#5907590700008E05
(1549571041.229435) can0 726#7F
(1549571041.246091) can0 1A6#1F00000000001D17
(1549571041.247054) can0 2A6#65006A0001000000
(1549571041.248042) can0 3A6#000000002B000000
(1549571041.248996) can0 4A6#5907590700008C05
(1549571041.329825) can0 726#7F
(1549571041.346491) can0 1A6#140000000000111A
(1549571041.347462) can0 2A6#65006A0001000000
(1549571041.348451) can0 3A6#000000002B000000
(1549571041.349379) can0 4A6#5907590700008E05
(1549571041.430273) can0 726#7F
(1549571041.446909) can0 1A6#0C0000000000771C
(1549571041.447870) can0 2A6#65006A0001000000
(1549571041.448855) can0 3A6#000000002B000000
(1549571041.449810) can0 4A6#5907590700008C05
(1549571041.530723) can0 726#7F
(1549571041.547411) can0 1A6#0D0000000000741E
(1549571041.548349) can0 2A6#65006A0001000000
(1549571041.549336) can0 3A6#000000002B000000
(1549571041.550292) can0 4A6#5907590700008C05
(1549571041.631046) can0 726#7F
(1549571041.647752) can0 1A6#1100000000000820
(1549571041.648699) can0 2A6#65006A0001000000
(1549571041.649687) can0 3A6#000000002B000000
(1549571041.650625) can0 4A6#5907590700008E05
(1549571041.731509) can0 726#7F
(1549571041.748210) can0 1A6#0E00000000006721
(1549571041.749179) can0 2A6#65006A0001000000
(1549571041.750168) can0 3A6#000000002B000000
(1549571041.751121) can0 4A6#5907590700008C05
(1549571041.831860) can0 726#7F
(1549571041.848557) can0 1A6#0A00000000006F22
(1549571041.849498) can0 2A6#65006A0001000000
(1549571041.850485) can0 3A6#000000002B000000
(1549571041.851436) can0 4A6#5907590700008E05
(1549571041.932284) can0 726#7F
(1549571041.948939) can0 1A6#0700000000005323
(1549571041.949905) can0 2A6#65006A0001000000
(1549571041.950892) can0 3A6#000000002B000000
(1549571041.951831) can0 4A6#5907590700008E05
(1549571042.032687) can0 726#7F
(1549571042.049343) can0 1A6#0600000000001424
(1549571042.050304) can0 2A6#65006A0001000000
(1549571042.051293) can0 3A6#000000002B000000
(1549571042.052246) can0 4A6#5907590700008C05
(1549571042.133084) can0 726#7F
(1549571042.149747) can0 1A6#0A0000000000B224
(1549571042.150711) can0 2A6#65006A0001000000
(1549571042.151711) can0 3A6#000000002B000000
(1549571042.152638) can0 4A6#5907590700008E05
(1549571042.233552) can0 726#7F
(1549571042.250228) can0 1A6#0A00000000002D25
(1549571042.251190) can0 2A6#65006A0001000000
(1549571042.252179) can0 3A6#000000002B000000
(1549571042.253134) can0 4A6#5907590700008C05
(1549571042.333905) can0 726#7F
(1549571042.350592) can0 1A6#0C00000000009725
(1549571042.351556) can0 2A6#65006A0003000000
(1549571042.352538) can0 3A6#000000002B000000
(1549571042.353471) can0 4A6#5907590700008905
(1549571042.434369) can0 726#7F
(1549571042.451075) can0 1A6#080000000000DA27
(1549571042.452039) can0 2A6#62006A0003000000
(1549571042.453025) can0 3A6#000000002B000000
(1549571042.453974) can0 4A6#5907590700007F05
(1549571042.534721) can0 726#7F
(1549571042.551386) can0 1A6#190000000000C927
(1549571042.552340) can0 2A6#5D006A0005000000
(1549571042.553328) can0 3A6#000000002B000000
(1549571042.554276) can0 4A6#5907590700007F05
(1549571042.635445) can0 726#7F
(1549571042.652509) can0 1A6#1A0000000000DA27
(1549571042.653473) can0 2A6#5900690005000000
(1549571042.654465) can0 3A6#000000002B000000
(1549571042.655420) can0 4A6#5907590700007F05
(1549571042.735906) can0 726#7F
(1549571042.752981) can0 1A6#200000000000DA27
(1549571042.753961) can0 2A6#56006A0005000000
(1549571042.754947) can0 3A6#000000002B000000
(1549571042.755896) can0 4A6#5907590700007F05
(1549571042.836256) can0 726#7F
(1549571042.853316) can0 1A6#1D0000000000DA27
(1549571042.854279) can0 2A6#52006A0005000000
(1549571042.855267) can0 3A6#000000002B000000
(1549571042.856206) can0 4A6#5907590700008E05
(1549571042.936759) can0 726#7F
(1549571042.953803) can0 1A6#220000000000DA27
(1549571042.954751) can0 2A6#50006A0005000000
(1549571042.955738) can0 3A6#000000002B000000
(1549571042.956689) can0 4A6#5907590700007F05
(1549571043.037072) can0 726#7F
(1549571043.054149) can0 1A6#1F0000000000DA27
(1549571043.055093) can0 2A6#4D006A0005000000
(1549571043.056081) can0 3A6#000000002B000000
(1549571043.057030) can0 4A6#5907590700007F05
(1549571043.137579) can0 726#7F
(1549571043.154723) can0 1A6#200000000000DA27
(1549571043.155687) can0 2A6#4A006A0005000000
(1549571043.156674) can0 3A6#000000002B000000
(1549571043.157621) can0 4A6#5907590700007F05
(1549571043.237888) can0 726#7F
(1549571043.254963) can0 1A6#1F0000000000DA27
(1549571043.255920) can0 2A6#47006A0005000000
(1549571043.256906) can0 3A6#000000002B000000
(1549571043.257853) can0 4A6#5907590700007F05
(1549571043.338288) can0 726#7F
(1549571043.355362) can0 1A6#1A0000000000DA27
(1549571043.356310) can0 2A6#45006A0005000000
(1549571043.357296) can0 3A6#000000002B000000
(1549571043.358236) can0 4A6#5907590700009105
(1549571043.438758) can0 726#7F
(1549571043.455841) can0 1A6#1C0000000000DA27
(1549571043.456798) can0 2A6#46006A0005000000
(1549571043.457784) can0 3A6#000000002B000000
(1549571043.458739) can0 4A6#5907590700008105
(1549571043.539158) can0 726#7F
(1549571043.556179) can0 1A6#230000000000DA27
(1549571043.557132) can0 2A6#46006A0005000000
(1549571043.558119) can0 3A6#000000002B000000
(1549571043.559068) can0 4A6#5907590700008405
(1549571043.639590) can0 726#7F
(1549571043.656668) can0 1A6#200000000000DA27
(1549571043.657620) can0 2A6#47006A0005000000
(1549571043.658607) can0 3A6#000000002B000000
(1549571043.659559) can0 4A6#5907590700008E05
(1549571043.739924) can0 726#7F
(1549571043.756993) can0 1A6#1B0000000000DA27
(1549571043.757948) can0 2A6#47006A0005000000
(1549571043.758935) can0 3A6#000000002B000000
(1549571043.759889) can0 4A6#5907590700008105
(1549571043.840426) can0 726#7F
(1549571043.857583) can0 1A6#1B0000000000DA27
(1549571043.858537) can0 2A6#47006A0005000000
(1549571043.859510) can0 3A6#000000002B000000
(1549571043.860461) can0 4A6#5907590700008E05
(1549571043.940740) can0 726#7F
(1549571043.957873) can0 1A6#200000000000DA27
(1549571043.958837) can0 2A6#48006A0005000000
(1549571043.959822) can0 3A6#000000002B000000
(1549571043.960778) can0 4A6#5907590700008105
(1549571044.041149) can0 726#7F
(1549571044.058224) can0 1A6#170000000000DA27
(1549571044.059187) can0 2A6#48006A0005000000
(1549571044.060173) can0 3A6#000000002B000000
(1549571044.061129) can0 4A6#5907590700008105
(1549571044.141620) can0 726#7F
(1549571044.158690) can0 1A6#200000000000DA27
(1549571044.159663) can0 2A6#48006A0005000000
(1549571044.160637) can0 3A6#000000002B000000
(1549571044.161586) can0 4A6#5907590700008E05
(1549571044.241965) can0 726#7F
(1549571044.259041) can0 1A6#200000000000DA27
(1549571044.259993) can0 2A6#49006A0005000000
(1549571044.260980) can0 3A6#000000002B000000
(1549571044.261937) can0 4A6#5907590700008105
(1549571044.342460) can0 726#7F
(1549571044.359533) can0 1A6#230000000000DA27
(1549571044.360472) can0 2A6#49006A0005000000
(1549571044.361466) can0 3A6#000000002B000000
(1549571044.362410) can0 4A6#5907590700009105
(1549571044.442817) can0 726#7F
(1549571044.459869) can0 1A6#1E0000000000DA27
(1549571044.460816) can0 2A6#49006A0005000000
(1549571044.461805) can0 3A6#000000002B000000
(1549571044.462759) can0 4A6#5907590700008105
(1549571044.543187) can0 726#7F
(1549571044.560350) can0 1A6#1B0000000000DA27
(1549571044.561305) can0 2A6#49006A0005000000
(1549571044.562291) can0 3A6#000000002B000000
(1549571044.563246) can0 4A6#5907590700008105
(1549571044.643594) can0 726#7F
(1549571044.660717) can0 1A6#1A0000000000DA27
(1549571044.661685) can0 2A6#49006A0005000000
(1549571044.662658) can0 3A6#000000002B000000
(1549571044.663600) can0 4A6#5907590700008E05
(1549571044.744007) can0 726#7F
(1549571044.761116) can0 1A6#230000000000DA27
(1549571044.762076) can0 2A6#4A006A0005000000
(1549571044.763065) can0 3A6#000000002B000000
(1549571044.764022) can0 4A6#5907590700008105
(1549571044.844474) can0 726#7F
(1549571044.861559) can0 1A6#1E0000000000DA27
(1549571044.862508) can0 2A6#4A006A0005000000
(1549571044.863496) can0 3A6#000000002B000000
(1549571044.864446) can0 4A6#5907590700009105
(1549571044.944814) can0 726#7F
(1549571044.961882) can0 1A6#240000000000DA27
(1549571044.962843) can0 2A6#4A006A0005000000
(1549571044.963831) can0 3A6#000000002B000000
(1549571044.964788) can0 4A6#5907590700008105
(1549571045.045297) can0 726#7F
(1549571045.062370) can0 1A6#230000000000DA27
(1549571045.063331) can0 2A6#4A006A0005000000
(1549571045.064319) can0 3A6#000000002B000000
(1549571045.065275) can0 4A6#5907590700008105
(1549571045.145686) can0 726#7F
(1549571045.162705) can0 1A6#1D0000000000DA27
(1549571045.163667) can0 2A6#4A006A0005000000
(1549571045.164656) can0 3A6#000000002B000000
(1549571045.165597) can0 4A6#5907590700008E05
(1549571045.246045) can0 726#7F
(1549571045.263104) can0 1A6#180000000000DA27
(1549571045.264067) can0 2A6#4A006A0005000000
(1549571045.265054) can0 3A6#000000002B000000
(1549571045.266007) can0 4A6#5907590700008105
(1549571045.346463) can0 726#7F
(1549571045.363578) can0 1A6#180000000000DA27
(1549571045.364538) can0 2A6#4A006A0005000000
(1549571045.365516) can0 3A6#000000002B000000
(1549571045.366470) can0 4A6#5907590700009105
(1549571045.446857) can0 726#7F
(1549571045.463926) can0 1A6#160000000000DA27
(1549571045.464888) can0 2A6#4A006A0005000000
(1549571045.465875) can0 3A6#000000002B000000
(1549571045.466833) can0 4A6#5907590700008105
(1549571045.547330) can0 726#7F
(1549571045.564450) can0 1A6#1B0000000000DA27
(1549571045.565417) can0 2A6#4A006A0005000000
(1549571045.566387) can0 3A6#000000002B000000
(1549571045.567337) can0 4A6#5907590700008405
(1549571045.647729) can0 726#7F
(1549571045.664823) can0 1A6#200000000000DA27
(1549571045.665788) can0 2A6#4A006A0005000000
(1549571045.666774) can0 3A6#000000002B000000
(1549571045.667742) can0 4A6#0A000A0000008E05
(1549571045.748160) can0 726#7F
(1549571045.765294) can0 1A6#760000000700DA27
(1549571045.766246) can0 2A6#4B006A0005000000
(1549571045.767236) can0 3A6#000000002B000000
(1549571045.768200) can0 4A6#2300230000008105
(1549571045.848544) can0 726#7F
(1549571045.865593) can0 1A6#250100001600DA27
(1549571045.866556) can0 2A6#4B006A0005000000
(1549571045.867538) can0 3A6#000000002B000000
(1549571045.868508) can0 4A6#3C003C0000009105
(1549571045.949002) can0 726#7F
(1549571045.966015) can0 1A6#FF0108002300DA27
(1549571045.966964) can0 2A6#4B006A0005000000
(1549571045.967951) can0 3A6#000000002B000000
(1549571045.968900) can0 4A6#5500550000008105
(1549571046.049390) can0 726#7F
(1549571046.066466) can0 1A6#CA024C002E00DA27
(1549571046.067412) can0 2A6#4B006A0005000000
(1549571046.068374) can0 3A6#000046002B000000
(1549571046.069324) can0 4A6#6E006E0002008405
(1549571046.149780) can0 726#7F
(1549571046.166834) can0 1A6#4F03A3003900DA27
(1549571046.167769) can0 2A6#4B006B0005000200
(1549571046.168748) can0 3A6#00005C002B000000
(1549571046.169680) can0 4A6#8700870006008E05
(1549571046.250710) can0 726#7F
(1549571046.267427) can0 1A6#700307013600DA27
(1549571046.268360) can0 2A6#4B006B0005000600
(1549571046.269364) can0 3A6#00006A002B000000
(1549571046.270320) can0 4A6#A000A0000A008105
(1549571046.350609) can0 726#7F
(1549571046.367672) can0 1A6#500363013200DA27
(1549571046.368622) can0 2A6#4A006B0005000C00
(1549571046.369592) can0 3A6#000065002B000000
(1549571046.370538) can0 4A6#B900B9000D008E05
(1549571046.451016) can0 726#7F
(1549571046.468201) can0 1A6#0703B0012B00DA27
(1549571046.469121) can0 2A6#4A006B0005000F00
(1549571046.470096) can0 3A6#00005C002B000000
(1549571046.471045) can0 4A6#D200D20010008105
(1549571046.551439) can0 726#7F
(1549571046.568473) can0 1A6#A502E7012100C927
(1549571046.569413) can0 2A6#4A006B0005001100
(1549571046.570390) can0 3A6#00003D002B000000
(1549571046.571324) can0 4A6#EB00EB0013008405
(1549571046.651820) can0 726#7F
(1549571046.668865) can0 1A6#46020D021F00C927
(1549571046.669827) can0 2A6#4A006B0005001200
(1549571046.670806) can0 3A6#00002C002B000000
(1549571046.671761) can0 4A6#0401040114008E05
(1549571046.752259) can0 726#7F
(1549571046.769297) can0 1A6#12022E021D00DA27
(1549571046.770255) can0 2A6#4A006C0005001200
(1549571046.771246) can0 3A6#000027002B000000
(1549571046.772185) can0 4A6#1D011D0115008105
(1549571046.852642) can0 726#7F
(1549571046.869688) can0 1A6#F3014B021C00DA27
(1549571046.870630) can0 2A6#4A006B0005001200
(1549571046.871610) can0 3A6#00001E002B000000
(1549571046.872562) can0 4A6#3601360117008E05
(1549571046.953559) can0 726#7F
(1549571046.970196) can0 1A6#E90163021E00DA27
(1549571046.971158) can0 2A6#4A006C0005001200
(1549571046.972147) can0 3A6#000016002B000000
(1549571046.973087) can0 4A6#4F014F0118008105
(1549571047.053464) can0 726#7F
(1549571047.070506) can0 1A6#DD017C022000C927
(1549571047.071475) can0 2A6#4A006C0005001200
(1549571047.072459) can0 3A6#00001E002B000000
(1549571047.073408) can0 4A6#6801680119008105
(1549571047.153870) can0 726#7F
(1549571047.170906) can0 1A6#DE0195022100DA27
(1549571047.171859) can0 2A6#4A006C0005001100
(1549571047.172832) can0 3A6#00001A002B000000
(1549571047.173772) can0 4A6#810181011A008E05
(1549571047.254269) can0 726#7F
(1549571047.271306) can0 1A6#DD01AD021E00DA27
(1549571047.272258) can0 2A6#4A006B0005001200
(1549571047.273246) can0 3A6#000016002B000000
(1549571047.274179) can0 4A6#9A019A011A008105
(1549571047.354675) can0 726#7F
(1549571047.371709) can0 1A6#DD01C5022000DA27
(1549571047.372666) can0 2A6#4A006C0005001100
(1549571047.373637) can0 3A6#00001A002B000000
(1549571047.374574) can0 4A6#B301B3011B009105
(1549571047.455740) can0 726#7F
(1549571047.472234) can0 1A6#E201D9022100DA27
(1549571047.473192) can0 2A6#4A006C0005001200
(1549571047.474181) can0 3A6#000016002B000000
(1549571047.475119) can0 4A6#CC01CC011C008105
(1549571047.555507) can0 726#7F
(1549571047.572539) can0 1A6#E501F2021E00DA27
(1549571047.573495) can0 2A6#4A006C0005001200
(1549571047.574467) can0 3A6#00001A002B000000
(1549571047.575432) can0 4A6#E501E5011D008105
(1549571047.656437) can0 726#7F
(1549571047.673051) can0 1A6#D50106031700C927
(1549571047.674005) can0 2A6#4A006C0005001100
(1549571047.674993) can0 3A6#000016002B000000
(1549571047.675934) can0 4A6#FE01FE011E008C05
(1549571047.756305) can0 726#7F
(1549571047.773340) can0 1A6#9E0113031500DA27
(1549571047.774300) can0 2A6#4A006C0005001000
(1549571047.775279) can0 3A6#00000D002B000000
(1549571047.776228) can0 4A6#170217021F008105
(1549571047.856718) can0 726#7F
(1549571047.873745) can0 1A6#4B0114030A00DA27
(1549571047.874692) can0 2A6#4A006B0005000D00
(1549571047.875680) can0 3A6#000000002B000000
(1549571047.876636) can0 4A6#300230021F008E05
(1549571047.957133) can0 726#7F
(1549571047.974186) can0 1A6#FB0012030900DA27
(1549571047.975155) can0 2A6#4A006C0005000A00
(1549571047.976134) can0 3A6#0000FCFF2B000000
(1549571047.977075) can0 4A6#490249021F008405
(1549571048.057540) can0 726#7F
(1549571048.074586) can0 1A6#EC000E030900DA27
(1549571048.075546) can0 2A6#4A006B0005000800
(1549571048.076518) can0 3A6#0000FCFF2B000000
(1549571048.077458) can0 4A6#620262021E008405
(1549571048.158559) can0 726#7F
(1549571048.175078) can0 1A6#DA0007030500DA27
(1549571048.176042) can0 2A6#4A006C0005000600
(1549571048.177020) can0 3A6#0000FCFF2B000000
(1549571048.177943) can0 4A6#7B027B021E008E05
(1549571048.258351) can0 726#7F
(1549571048.275414) can0 1A6#D60000030C00DA27
(1549571048.276373) can0 2A6#4A006C0005000500
(1549571048.277353) can0 3A6#0000FCFF2B000000
(1549571048.278285) can0 4A6#940294021E008105
(1549571048.359258) can0 726#7F
(1549571048.375916) can0 1A6#CA00F6020900DA27
(1549571048.376878) can0 2A6#4A006C0005000400
(1549571048.377840) can0 3A6#0000EFFF2B000000
(1549571048.378763) can0 4A6#AD02AD021D008E05
(1549571048.459167) can0 726#7F
(1549571048.476200) can0 1A6#DB00EE020500DA27
(1549571048.477148) can0 2A6#4A006B0005000300
(1549571048.478125) can0 3A6#0000FCFF2B000000
(1549571048.479057) can0 4A6#C602C6021D008105
(1549571048.559583) can0 726#7F
(1549571048.576608) can0 1A6#DB00E5020600DA27
(1549571048.577581) can0 2A6#4A006C0005000300
(1549571048.578560) can0 3A6#0000FCFF2B000000
(1549571048.579495) can0 4A6#DF02DF021D008405
(1549571048.659978) can0 726#7F
(1549571048.677056) can0 1A6#C400DB020400DA27
(1549571048.678009) can0 2A6#4A006B0005000200
(1549571048.678971) can0 3A6#0000F8FF2B000000
(1549571048.679944) can0 4A6#F802F8021C008C05
(1549571048.760394) can0 726#7F
(1549571048.777457) can0 1A6#C600D2020600DA27
(1549571048.778412) can0 2A6#4A006C0005000200
(1549571048.779379) can0 3A6#0000FCFF2B000000
(1549571048.780338) can0 4A6#110311031C008105
(1549571048.861418) can0 726#7F
(1549571048.877943) can0 1A6#C100CC020500DA27
(1549571048.878895) can0 2A6#4A006C0005000200
(1549571048.879874) can0 3A6#0000FCFF2B000000
(1549571048.880825) can0 4A6#2A032A031C009105
(1549571048.961238) can0 726#7F
(1549571048.978256) can0 1A6#CA00C1020900DA27
(1549571048.979223) can0 2A6#4A006C0005000100
(1549571048.980194) can0 3A6#0000F3FF2B000000
(1549571048.981125) can0 4A6#430343031B008105
(1549571049.062105) can0 726#7F
(1549571049.078780) can0 1A6#BC00B6020A00DA27
(1549571049.079750) can0 2A6#4A006C0005000100
(1549571049.080714) can0 3A6#0000F8FF2B000000
(1549571049.081637) can0 4A6#5C035C031B008405
(1549571049.162030) can0 726#7F
(1549571049.179061) can0 1A6#C500AE020600DA27
(1549571049.180028) can0 2A6#4A006C0005000100
(1549571049.180991) can0 3A6#0000F8FF2B000000
(1549571049.181917) can0 4A6#750375031B008E05
(1549571049.262440) can0 726#7F
(1549571049.279498) can0 1A6#BE00A6020800DA27
(1549571049.280467) can0 2A6#4A006C0005000100
(1549571049.281441) can0 3A6#0000F8FF2B000000
(1549571049.282362) can0 4A6#8E038E031A008105
(1549571049.362837) can0 726#7F
(1549571049.379880) can0 1A6#CF009C020600DA27
(1549571049.380849) can0 2A6#4A006C0005000100
(1549571049.381814) can0 3A6#0000F8FF2B000000
(1549571049.382738) can0 4A6#A703A7031A008E05
(1549571049.463241) can0 726#7F
(1549571049.480270) can0 1A6#D10095020B00DA27
(1549571049.481231) can0 2A6#4A006B0005000100
(1549571049.482203) can0 3A6#0000F3FF2B000000
(1549571049.483152) can0 4A6#C003C0031A008105
(1549571049.564252) can0 726#7F
(1549571049.580798) can0 1A6#FE008F020C00DA27
(1549571049.581752) can0 2A6#4A006C0005000200
(1549571049.582731) can0 3A6#0000FCFF2B000000
(1549571049.583665) can0 4A6#D903D90319008405
(1549571049.664057) can0 726#7F
(1549571049.681117) can0 1A6#15018D020F00DA27
(1549571049.682069) can0 2A6#4A006B0005000200
(1549571049.683049) can0 3A6#0000FCFF2B000000
(1549571049.683980) can0 4A6#F203F20319008E05
(1549571049.764954) can0 726#7F
(1549571049.781613) can0 1A6#2C0187021200DA27
(1549571049.782587) can0 2A6#4A006C0005000300
(1549571049.783564) can0 3A6#0000FCFF2B000000
(1549571049.784508) can0 4A6#0B040B0419008105
(1549571049.864878) can0 726#7F
(1549571049.881932) can0 1A6#4B0188021400DA27
(1549571049.882892) can0 2A6#4A006C0005000400
(1549571049.883871) can0 3A6#0000FCFF2B000000
(1549571049.884819) can0 4A6#2404240419008E05
(1549571049.965285) can0 726#7F
(1549571049.982330) can0 1A6#83018F021B00DA27
(1549571049.983293) can0 2A6#4A006C0005000600
(1549571049.984280) can0 3A6#000008002B000000
(1549571049.985235) can0 4A6#3D043D0419008105
(1549571050.065703) can0 726#7F
(1549571050.082834) can0 1A6#BE019F021E00C927
(1549571050.083787) can0 2A6#4A006C0005000700
(1549571050.084759) can0 3A6#000011002B000000
(1549571050.085712) can0 4A6#560456041A008405
(1549571050.166092) can0 726#7F
(1549571050.183136) can0 1A6#F101B2022300DA27
(1549571050.184105) can0 2A6#4A006C0005000A00
(1549571050.185092) can0 3A6#000016002B000000
(1549571050.186032) can0 4A6#6F046F041B008E05
(1549571050.267107) can0 726#7F
(1549571050.283639) can0 1A6#3002D1022D00C927
(1549571050.284594) can0 2A6#4A006C0005000E00
(1549571050.285583) can0 3A6#00001E002B000000
(1549571050.286520) can0 4A6#880488041C008105
(1549571050.366922) can0 726#7F
(1549571050.383974) can0 1A6#B90209033F00C927
(1549571050.384945) can0 2A6#4A006C0005001600
(1549571050.385931) can0 3A6#00003D002B000000
(1549571050.386878) can0 4A6#A104A1041E009105
(1549571050.467868) can0 726#7F
(1549571050.484545) can0 1A6#FB024C034800C927
(1549571050.485501) can0 2A6#4A006C0005001F00
(1549571050.486482) can0 3A6#00004F002B000000
(1549571050.487439) can0 4A6#BA04BA0421008105
(1549571050.567733) can0 726#7F
(1549571050.584794) can0 1A6#1F0399034B00C927
(1549571050.585754) can0 2A6#4A006C0005002800
(1549571050.586736) can0 3A6#00004F002B000000
(1549571050.587667) can0 4A6#D304D30424008405
(1549571050.668139) can0 726#7F
(1549571050.685201) can0 1A6#2F03EC035A00C927
(1549571050.686162) can0 2A6#4A006C0005003100
(1549571050.687142) can0 3A6#00005C002B000000
(1549571050.688064) can0 4A6#EC04EC0427008E05
(1549571050.768582) can0 726#7F
(1549571050.785711) can0 1A6#1B0336044400C927
(1549571050.786668) can0 2A6#4A006C0005003600
(1549571050.787653) can0 3A6#000058002B000000
(1549571050.788608) can0 4A6#050505052A008105
(1549571050.868946) can0 726#7F
(1549571050.885981) can0 1A6#B40269043300C927
(1549571050.886938) can0 2A6#4A006C0005003500
(1549571050.887916) can0 3A6#000035002B000000
(1549571050.888861) can0 4A6#1E051E052C009105
(1549571050.969892) can0 726#7F
(1549571050.986467) can0 1A6#260281041B00C927
(1549571050.987414) can0 2A6#4A006C0005002F00
(1549571050.988386) can0 3A6#00002C002B000000
(1549571050.989325) can0 4A6#370537052D008105
(1549571051.069759) can0 726#7F
(1549571051.086828) can0 1A6#800182040900DA27
(1549571051.087792) can0 2A6#4A006C0005002400
(1549571051.088761) can0 3A6#000004002B000000
(1549571051.089686) can0 4A6#500550052D008405
(1549571051.170674) can0 726#7F
(1549571051.187380) can0 1A6#C30076040100DA27
(1549571051.188341) can0 2A6#4A006C0005001400
(1549571051.189305) can0 3A6#0000F8FF2B000000
(1549571051.190228) can0 4A6#690569052D008C05
(1549571051.270589) can0 726#7F
(1549571051.287664) can0 1A6#BC005C040100DA27
(1549571051.288610) can0 2A6#4A006C0005000C00
(1549571051.289586) can0 3A6#0000E6FF2B000000
(1549571051.290544) can0 4A6#820582052C008105
(1549571051.370988) can0 726#7F
(1549571051.388057) can0 1A6#CE0046040600DA27
(1549571051.389017) can0 2A6#4A006C0005000600
(1549571051.389981) can0 3A6#0000E6FF2B000000
(1549571051.390904) can0 4A6#9B059B052B008E05
(1549571051.471468) can0 726#7F
(1549571051.488578) can0 1A6#E00029040400DA27
(1549571051.489516) can0 2A6#4A006C0005000300
(1549571051.490477) can0 3A6#0000E2FF2B000000
(1549571051.491415) can0 4A6#B405B4052A008105
(1549571051.571819) can0 726#7F
(1549571051.588880) can0 1A6#1E010C040600DA27
(1549571051.589834) can0 2A6#4A006C000500FFFF
(1549571051.590797) can0 3A6#0000E2FF2B000000
(1549571051.591729) can0 4A6#CD05CD0528008405
(1549571051.672822) can0 726#7F
(1549571051.689349) can0 1A6#8601E3030800DA27
(1549571051.690312) can0 2A6#4A006C000500FBFF
(1549571051.691277) can0 3A6#0000D9FF2B000000
(1549571051.692200) can0 4A6#E605E60527008C05
(1549571051.772615) can0 726#7F
(1549571051.789688) can0 1A6#C101B1030900DA27
(1549571051.790628) can0 2A6#4A006C000500F7FF
(1549571051.791595) can0 3A6#0000C7FF2B000000
(1549571051.792553) can0 4A6#FF05FF0525008105
(1549571051.873539) can0 726#7F
(1549571051.890080) can0 1A6#D80182030900DA27
(1549571051.891028) can0 2A6#4A006C000500F4FF
(1549571051.891999) can0 3A6#0000CBFF2B000000
(1549571051.892939) can0 4A6#1806180623008E05
(1549571051.973501) can0 726#7F
(1549571051.990583) can0 1A6#E00148030600DA27
(1549571051.991536) can0 2A6#4A006C000500F0FF
(1549571051.992494) can0 3A6#0000C3FF2B000000
(1549571051.993453) can0 4A6#3106310621008105
(1549571052.073843) can0 726#7F
(1549571052.090878) can0 1A6#E60112030900DA27
(1549571052.091833) can0 2A6#4A006C000500EFFF
(1549571052.092813) can0 3A6#0000BEFF2B000000
(1549571052.093751) can0 4A6#4A064A061F008405
(1549571052.174275) can0 726#7F
(1549571052.191390) can0 1A6#EE01D9020900DA27
(1549571052.192346) can0 2A6#4A006C000500EFFF
(1549571052.193307) can0 3A6#0000C7FF2B000000
(1549571052.194245) can0 4A6#630663061C008C05
(1549571052.274666) can0 726#7F
(1549571052.291716) can0 1A6#E8019F020A00DA27
(1549571052.292671) can0 2A6#4A006C000500EFFF
(1549571052.293642) can0 3A6#0000C3FF2B000000
(1549571052.294595) can0 4A6#7C067C061A008105
(1549571052.375703) can0 726#7F
(1549571052.392208) can0 1A6#DE0169020900DA27
(1549571052.393162) can0 2A6#4A006C000500EFFF
(1549571052.394141) can0 3A6#0000BEFF2B000000
(1549571052.395080) can0 4A6#9506950618008E05
(1549571052.475485) can0 726#7F
(1549571052.492559) can0 1A6#87013F020600DA27
(1549571052.493500) can0 2A6#4A006C000500F3FF
(1549571052.494464) can0 3A6#0000D0FF2B000000
(1549571052.495394) can0 4A6#AE06AE0616008105
(1549571052.575878) can0 726#7F
(1549571052.592921) can0 1A6#1B0125020400DA27
(1549571052.593874) can0 2A6#4A006C000500F6FF
(1549571052.594839) can0 3A6#0000DDFF2B000000
(1549571052.595761) can0 4A6#C706C70615008405
(1549571052.676284) can0 726#7F
(1549571052.693350) can0 1A6#A20016020C00DA27
(1549571052.694314) can0 2A6#4A006C000500F9FF
(1549571052.695277) can0 3A6#0000EFFF2B000000
(1549571052.696224) can0 4A6#E006E00615008C05
(1549571052.776697) can0 726#7F
(1549571052.793766) can0 1A6#D50010020C00C927
(1549571052.794720) can0 2A6#4A006C000500FDFF
(1549571052.795700) can0 3A6#0000FCFF2B000000
(1549571052.796667) can0 4A6#F906F90614008105
(1549571052.877595) can0 726#7F
(1549571052.894341) can0 1A6#3D0113021400DA27
(1549571052.895313) can0 2A6#4A006C0005000000
(1549571052.896300) can0 3A6#000000002B000000
(1549571052.897247) can0 4A6#1207120714009105
(1549571052.977505) can0 726#7F
(1549571052.994560) can0 1A6#83011A021900C927
(1549571052.995502) can0 2A6#4A006C0005000200
(1549571052.996491) can0 3A6#000008002B000000
(1549571052.997447) can0 4A6#2B072B0715008105
(1549571053.078522) can0 726#7F
(1549571053.095050) can0 1A6#B60127021C00C927
(1549571053.096020) can0 2A6#4A006C0005000500
(1549571053.097001) can0 3A6#00000D002B000000
(1549571053.097925) can0 4A6#4407440715008405
(1549571053.178333) can0 726#7F
(1549571053.195384) can0 1A6#2C0242022C00DA27
(1549571053.196331) can0 2A6#4A006D0005000900
(1549571053.197312) can0 3A6#00001E002B000000
(1549571053.198242) can0 4A6#5D075D0716008605
(1549571053.278741) can0 726#7F
(1549571053.295793) can0 1A6#A70277023A00C927
(1549571053.296739) can0 2A6#4A006D0005000F00
(1549571053.297710) can0 3A6#000030002B000000
(1549571053.298651) can0 4A6#7607760718008105
(1549571053.379146) can0 726#7F
(1549571053.396206) can0 1A6#1A03C5024F00C927
(1549571053.397162) can0 2A6#4A006D0005001800
(1549571053.398140) can0 3A6#00004F002B000000
(1549571053.399072) can0 4A6#8F078F071B008E05
(1549571053.479613) can0 726#7F
(1549571053.496617) can0 1A6#7F032C035E00B727
(1549571053.497580) can0 2A6#4A006D0005002400
(1549571053.498550) can0 3A6#00006E002B000000
(1549571053.499486) can0 4A6#A807A8071F008105
(1549571053.580455) can0 726#7F
(1549571053.597199) can0 1A6#BE026E031C00DA27
(1549571053.598153) can0 2A6#4A006D0005002400
(1549571053.599131) can0 3A6#00005C002B000000
(1549571053.600085) can0 4A6#C107C10722008405
(1549571053.680376) can0 726#7F
(1549571053.697440) can0 1A6#DD0156030000DA27
(1549571053.698389) can0 2A6#4A006D0005001400
(1549571053.699352) can0 3A6#0000DDFF2B000000
(1549571053.700300) can0 4A6#DA07DA0721008105
(1549571053.780782) can0 726#7F
(1549571053.797829) can0 1A6#E0011C030600DA27
(1549571053.798779) can0 2A6#4A006E0005000600
(1549571053.799751) can0 3A6#0000C3FF2B000000
(1549571053.800701) can0 4A6#F307F3071F008105
(1549571053.881191) can0 726#7F
(1549571053.898266) can0 1A6#EB01E0020800DA27
(1549571053.899219) can0 2A6#4A006E000500FDFF
(1549571053.900202) can0 3A6#0000BEFF2B000000
(1549571053.901155) can0 4A6#0C080C081D009105
(1549571053.981600) can0 726#7F
(1549571053.998651) can0 1A6#ED01A5020800DA27
(1549571053.999596) can0 2A6#4A006F000500F8FF
(1549571054.000579) can0 3A6#0000C3FF2B000000
(1549571054.001504) can0 4A6#250825081A008105
(1549571054.082019) can0 726#7F
(1549571054.099073) can0 1A6#E8016F020C00DA27
(1549571054.100026) can0 2A6#4A006E000500F5FF
(1549571054.100996) can0 3A6#0000C3FF2B000000
(1549571054.101968) can0 4A6#3E083E0818008605
(1549571054.182412) can0 726#7F
(1549571054.199476) can0 1A6#ED0135020B00DA27
(1549571054.200428) can0 2A6#4A006F000500F4FF
(1549571054.201387) can0 3A6#0000C3FF2B000000
(1549571054.202312) can0 4A6#5708570816008105
(1549571054.283252) can0 726#7F
(1549571054.300039) can0 1A6#E301F9010E00DA27
(1549571054.300983) can0 2A6#4A006F000500F3FF
(1549571054.301965) can0 3A6#0000BEFF2B000000
(1549571054.302910) can0 4A6#7008700814008105
(1549571054.383241) can0 726#7F
(1549571054.400294) can0 1A6#D701C3010D00DA27
(1549571054.401245) can0 2A6#4A006F000500F4FF
(1549571054.402208) can0 3A6#0000C7FF2B000000
(1549571054.403123) can0 4A6#8908890811009105
(1549571054.483643) can0 726#7F
(1549571054.500695) can0 1A6#BF0192010C00DA27
(1549571054.501643) can0 2A6#4A006E000500F5FF
(1549571054.502605) can0 3A6#0000C7FF2B000000
(1549571054.503582) can0 4A6#A208A20810008105
(1549571054.584036) can0 726#7F
(1549571054.601088) can0 1A6#940246012700C927
(1549571054.602033) can0 2A6#4A006F000500F3FF
(1549571054.602987) can0 3A6#0000ACFF2B000000
(1549571054.603920) can0 4A6#BB08BB080D008405
(1549571054.684460) can0 726#7F
(1549571054.701493) can0 1A6#B703AD002900DA27
(1549571054.702442) can0 2A6#4A006E000500F0FF
(1549571054.703393) can0 3A6#000061FF2B000000
(1549571054.704334) can0 4A6#D408D40807008105
(1549571054.785282) can0 726#7F
(1549571054.802134) can0 1A6#DA0250000C00DA27
(1549571054.803085) can0 2A6#4A006F000500F4FF
(1549571054.804050) can0 3A6#000096FF2B000000
(1549571054.804980) can0 4A6#ED08ED0803008105
(1549571054.885269) can0 726#7F
(1549571054.902323) can0 1A6#81013A000700DA27
(1549571054.903267) can0 2A6#4A006F000500F8FF
(1549571054.904231) can0 3A6#0000D9FF2B000000
(1549571054.905181) can0 4A6#0609060902009105
(1549571054.986145) can0 726#7F
(1549571055.002921) can0 1A6#E5002C000000DA27
(1549571055.003876) can0 2A6#4A006F000500FAFF
(1549571055.004841) can0 3A6#0000EFFF2B000000
(1549571055.005787) can0 4A6#1409140901008105
(1549571055.086070) can0 726#7F
(1549571055.103161) can0 1A6#7D0020000000DA27
(1549571055.104122) can0 2A6#4A006F000500FCFF
(1549571055.105094) can0 3A6#0000F3FF2B000000
(1549571055.106043) can0 4A6#1409140901008405
(1549571055.186491) can0 726#7F
(1549571055.203557) can0 1A6#630015000200DA27
(1549571055.204489) can0 2A6#4A006F000500FEFF
(1549571055.205477) can0 3A6#0000F3FF2B000000
(1549571055.206467) can0 4A6#1409140900008105
(1549571055.286890) can0 726#7F
(1549571055.303959) can0 1A6#60000A000100DA27
(1549571055.304907) can0 2A6#4A006F000500FEFF
(1549571055.305876) can0 3A6#0000F3FF2B000000
(1549571055.306841) can0 4A6#1409140900008105
(1549571055.387292) can0 726#7F
(1549571055.404357) can0 1A6#480004000000DA27
(1549571055.405319) can0 2A6#4A006F000500FFFF
(1549571055.406284) can0 3A6#0000F8FF2B000000
(1549571055.407232) can0 4A6#1409140900008E05
(1549571055.487738) can0 726#7F
(1549571055.504999) can0 1A6#330004000000DA27
(1549571055.505960) can0 2A6#4A006E000500FFFF
(1549571055.506949) can0 3A6#000000002B000000
(1549571055.507912) can0 4A6#1409140900008105
(1549571055.588121) can0 726#7F
(1549571055.605174) can0 1A6#2900FDFF0000DA27
(1549571055.606153) can0 2A6#4A006F0005000000
(1549571055.607132) can0 3A6#0000FCFF2B000000
(1549571055.608079) can0 4A6#1409140900008605
(1549571055.688946) can0 726#7F
(1549571055.705717) can0 1A6#2400FCFF0000DA27
(1549571055.706697) can0 2A6#4A006F0005000000
(1549571055.707683) can0 3A6#000000002B000000
(1549571055.708638) can0 4A6#1409140900008405
(1549571055.788921) can0 726#7F
(1549571055.805980) can0 1A6#2300FCFF0000C927
(1549571055.806960) can0 2A6#4A006F0005000000
(1549571055.807947) can0 3A6#000000002B000000
(1549571055.808910) can0 4A6#1409140900008105
(1549571055.889330) can0 726#7F
(1549571055.906448) can0 1A6#1C00FCFF0000DA27
(1549571055.907373) can0 2A6#4A006F0005000000
(1549571055.908361) can0 3A6#000000002B000000
(1549571055.909310) can0 4A6#1409140900009105
(1549571055.989735) can0 726#7F
(1549571056.006829) can0 1A6#2100FCFF0000DA27
(1549571056.007807) can0 2A6#4A006F0005000000
(1549571056.008794) can0 3A6#000000002B000000
(1549571056.009757) can0 4A6#1409140900008105
(1549571056.090143) can0 726#7F
(1549571056.107204) can0 1A6#1E00FDFF0000DA27
(1549571056.108183) can0 2A6#4A006F0005000000
(1549571056.109170) can0 3A6#000000002B000000
(1549571056.110117) can0 4A6#1409140900008605
(1549571056.190591) can0 726#7F
(1549571056.207836) can0 1A6#2000FEFF0000DA27
(1549571056.208815) can0 2A6#4A006F0005000000
(1549571056.209785) can0 3A6#000004002B000000
(1549571056.210749) can0 4A6#1409140900008105
(1549571056.290957) can0 726#7F
(1549571056.308035) can0 1A6#2200FFFF0000DA27
(1549571056.309011) can0 2A6#4A006F0005000000
(1549571056.310000) can0 3A6#000000002B000000
(1549571056.310956) can0 4A6#1409140900008405
(1549571056.391421) can0 726#7F
(1549571056.408560) can0 1A6#220000000000DA27
(1549571056.409515) can0 2A6#4A006F0006000000
(1549571056.410503) can0 3A6#000000002B000000
(1549571056.411462) can0 4A6#1409140900009105
(1549571056.491762) can0 726#7F
(1549571056.508816) can0 1A6#1F0000000000DA27
(1549571056.509767) can0 2A6#4A006F0006000000
(1549571056.510751) can0 3A6#000000002B000000
(1549571056.511726) can0 4A6#1409140900008105
(1549571056.592124) can0 726#7F
(1549571056.609211) can0 1A6#230000000000C927
(1549571056.610163) can0 2A6#4A006F0006000000
(1549571056.611151) can0 3A6#000000002B000000
(1549571056.612096) can0 4A6#1409140900008E05
(1549571056.692549) can0 726#7F
(1549571056.709681) can0 1A6#200000000000C927
(1549571056.710632) can0 2A6#4A006F0006000000
(1549571056.711619) can0 3A6#000000002B000000
(1549571056.712594) can0 4A6#1409140900008105
(1549571056.792986) can0 726#7F
(1549571056.810063) can0 1A6#200000000000C927
(1549571056.811031) can0 2A6#4A006F0006000000
(1549571056.812019) can0 3A6#000000002B000000
(1549571056.812975) can0 4A6#1409140900008405
(1549571056.893422) can0 726#7F
(1549571056.910670) can0 1A6#1D0000000000DA27
(1549571056.911632) can0 2A6#4A006E0006000000
(1549571056.912620) can0 3A6#000000002B000000
(1549571056.913581) can0 4A6#1409140900008E05
(1549571056.993763) can0 726#7F
(1549571057.010837) can0 1A6#1C0000000000DA27
(1549571057.011808) can0 2A6#4A006F0006000000
(1549571057.012796) can0 3A6#000000002B000000
(1549571057.013758) can0 4A6#1409140900008105
(1549571057.094248) can0 726#7F
(1549571057.111423) can0 1A6#1F0000000000DA27
(1549571057.112382) can0 2A6#4A006F0006000000
(1549571057.113370) can0 3A6#000000002B000000
(1549571057.114318) can0 4A6#1409140900008E05
(1549571057.194624) can0 726#7F
(1549571057.211684) can0 1A6#230000000000DA27
(1549571057.212654) can0 2A6#4A006F0006000000
(1549571057.213641) can0 3A6#000000002B000000
(1549571057.214604) can0 4A6#1409140900008105
(1549571057.294982) can0 726#7F
(1549571057.312044) can0 1A6#230000000000DA27
(1549571057.313012) can0 2A6#4A006F0006000000
(1549571057.314000) can0 3A6#000000002B000000
(1549571057.314966) can0 4A6#1409140900008105
(1549571057.395060) can0 726#7F
(1549571057.411726) can0 1A6#110000000000C927
(1549571057.412690) can0 2A6#4A006F0008000000
(1549571057.413689) can0 3A6#000000002B000000
(1549571057.414625) can0 4A6#1409140900008E05
(1549571057.495476) can0 726#7F
(1549571057.512144) can0 1A6#0A0000000000B727
(1549571057.513105) can0 2A6#4D006F0000000000
(1549571057.514093) can0 3A6#000000002B000000
(1549571057.515042) can0 4A6#1409140900008E05
(1549571057.595934) can0 726#7F
(1549571057.612726) can0 1A6#0F0000000000B727
(1549571057.613704) can0 2A6#4F006F0000000000
(1549571057.614677) can0 3A6#000000002B000000
(1549571057.615625) can0 4A6#1409140900008E05
(1549571057.696284) can0 726#7F
(1549571057.712951) can0 1A6#0E0000000000A527
(1549571057.713913) can0 2A6#51006F0000000000
(1549571057.714901) can0 3A6#000000002B000000
(1549571057.715856) can0 4A6#1409140900008C05
(1549571057.796756) can0 726#7F
(1549571057.813475) can0 1A6#100000000000A527
(1549571057.814444) can0 2A6#53006F0000000000
(1549571057.815439) can0 3A6#000000002B000000
(1549571057.816368) can0 4A6#1409140900008E05
(1549571057.897099) can0 726#7F
(1549571057.913781) can0 1A6#1000000000009427
(1549571057.914768) can0 2A6#54006F0000000000
(1549571057.915756) can0 3A6#000000002B000000
(1549571057.916705) can0 4A6#1409140900008E05
(1549571057.997581) can0 726#7F
(1549571058.014194) can0 1A6#0C00000000009427
(1549571058.015170) can0 2A6#56006F0000000000
(1549571058.016156) can0 3A6#000000002B000000
(1549571058.017104) can0 4A6#1409140900008E05
(1549571058.097933) can0 726#7F
(1549571058.114605) can0 1A6#0D00000000008227
(1549571058.115580) can0 2A6#57006F0000000000
(1549571058.116570) can0 3A6#000000002B000000
(1549571058.117503) can0 4A6#1409140900008E05
(1549571058.198323) can0 726#7F
(1549571058.215004) can0 1A6#0900000000008227
(1549571058.215975) can0 2A6#58006F0000000000
(1549571058.216963) can0 3A6#000000002B000000
(1549571058.217911) can0 4A6#1409140900008E05
(1549571058.298762) can0 726#7F
(1549571058.315584) can0 1A6#0800000000008227
(1549571058.316544) can0 2A6#59006F0000000000
(1549571058.317523) can0 3A6#000000002B000000
(1549571058.318471) can0 4A6#1409140900008E05
(1549571058.399145) can0 726#7F
(1549571058.415829) can0 1A6#0900000000007127
(1549571058.416801) can0 2A6#5A006F0000000000
(1549571058.417787) can0 3A6#000000002B000000
(1549571058.418736) can0 4A6#1409140900008E05
(1549571058.499609) can0 726#7F
(1549571058.516325) can0 1A6#0600000000007127
(1549571058.517286) can0 2A6#5B006F0000000000
(1549571058.518273) can0 3A6#000000002B000000
(1549571058.519222) can0 4A6#1409140900008E05
(1549571058.599961) can0 726#7F
(1549571058.616629) can0 1A6#0A00000000005F27
(1549571058.617598) can0 2A6#5C006F0000000000
(1549571058.618595) can0 3A6#000000002B000000
(1549571058.619543) can0 4A6#1409140900008E05
(1549571058.700414) can0 726#7F
(1549571058.717068) can0 1A6#0700000000005F27
(1549571058.718030) can0 2A6#5D006F0000000000
(1549571058.719017) can0 3A6#000000002B000000
(1549571058.719966) can0 4A6#1409140900008E05
(1549571058.800818) can0 726#7F
(1549571058.817479) can0 1A6#0A00000000004E27
(1549571058.818457) can0 2A6#5D006F0000000000
(1549571058.819444) can0 3A6#000000002B000000
(1549571058.820379) can0 4A6#1409140900008E05
